! ListType=Lin
!!Capacitor is 5pF Inductor is 3.3uH NLV32T-3R3J-EF
!
!Created with skrf (http://scikit-rf.org).
# MHz S RI R 50.0 
!freq ReS11 ImS11
5.0 -0.9550765 0.3592202
5.1758794 -0.9506749 0.3709182
5.3517588 -0.9459268 0.3831303
5.5276382 -0.9412127 0.3943802
5.7035176 -0.9360919 0.4061573
5.879397 -0.9308657 0.4177536
6.0552764 -0.9259015 0.429405
6.2311558 -0.920402 0.4411656
6.4070352 -0.9147094 0.4518128
6.5829146 -0.909064 0.4631795
6.758794 -0.9029598 0.4744173
6.9346734 -0.8966421 0.4850925
7.1105528 -0.8897512 0.4951064
7.2864322 -0.8835585 0.5057562
7.4623116 -0.8775625 0.5168164
7.638191 -0.8715556 0.5277944
7.8140704 -0.8650712 0.5386823
7.9899497 -0.8586364 0.5491242
8.1658291 -0.8519793 0.5597702
8.3417085 -0.8446136 0.5699783
8.5175879 -0.8389151 0.5819651
8.6934673 -0.8311396 0.5909707
8.8693467 -0.8236243 0.6005194
9.0452261 -0.8163233 0.6102108
9.2211055 -0.8089387 0.6200764
9.3969849 -0.8013128 0.6297793
9.5728643 -0.7933217 0.6393949
9.7487437 -0.7855268 0.6484995
9.9246231 -0.7771007 0.6570604
10.1005025 -0.7688289 0.6658206
10.2763819 -0.7607564 0.6748105
10.4522613 -0.7522027 0.6831983
10.6281407 -0.7437656 0.6917729
10.8040201 -0.7353191 0.7000089
10.9798995 -0.7267205 0.708589
11.1557789 -0.7187324 0.7188941
11.3316583 -0.7101343 0.7268967
11.5075377 -0.7010655 0.7354777
11.6834171 -0.6923979 0.7438195
11.8592965 -0.6828948 0.7511275
12.0351759 -0.6739485 0.7594405
12.2110553 -0.66465 0.7665756
12.3869347 -0.6555615 0.7745901
12.5628141 -0.6456397 0.7821362
12.7386935 -0.6364762 0.7892275
12.9145729 -0.6265807 0.7965053
13.0904523 -0.6172965 0.8039339
13.2663317 -0.6070345 0.8106802
13.4422111 -0.5973144 0.8176583
13.6180905 -0.5869826 0.824647
13.7939698 -0.5773396 0.8312666
13.9698492 -0.5670613 0.8378751
14.1457286 -0.5564529 0.8442139
14.321608 -0.5461834 0.8508929
14.4974874 -0.5355417 0.8567691
14.6733668 -0.5247427 0.8632728
14.8492462 -0.5138621 0.8694951
15.0251256 -0.5027441 0.8749065
15.201005 -0.4913881 0.8812033
15.3768844 -0.4800587 0.887116
15.5527638 -0.4685187 0.8927635
15.7286432 -0.456648 0.8982774
15.9045226 -0.4449066 0.9036106
16.080402 -0.4324574 0.9092486
16.2562814 -0.4200961 0.9145523
16.4321608 -0.407281 0.91943
16.6080402 -0.3942068 0.924495
16.7839196 -0.3812582 0.9293497
16.959799 -0.3676224 0.9330641
17.1356784 -0.354123 0.9355474
17.3115578 -0.3401353 0.9395725
17.4874372 -0.3262689 0.9414791
17.6633166 -0.3129833 0.9408658
17.839196 -0.2996297 0.9412788
18.0150754 -0.2857449 0.9420731
18.1909548 -0.2723068 0.9438029
18.3668342 -0.2594958 0.9437322
18.5427136 -0.2456546 0.9454876
18.718593 -0.2327283 0.9472537
18.8944724 -0.2194098 0.9486226
19.0703518 -0.2053112 0.9505419
19.2462312 -0.190472 0.9534562
19.4221106 -0.1738931 0.9565195
19.5979899 -0.1568726 0.9585831
19.7738693 -0.1372285 0.9607812
19.9497487 -0.1173749 0.9616312
20.1256281 -0.0966202 0.9603658
20.3015075 -0.073314 0.9588518
20.4773869 -0.0482816 0.9558546
20.6532663 -0.0196878 0.9518524
20.8291457 0.0102718 0.9449873
21.0050251 0.0439322 0.9347166
21.1809045 0.0795287 0.9207436
21.3567839 0.1179432 0.9016919
21.5326633 0.1594257 0.8756265
21.7085427 0.2043503 0.8418362
21.8844221 0.2513536 0.7947102
22.0603015 0.3006282 0.7325852
22.2361809 0.3419322 0.6469329
22.4120603 0.374355 0.5334711
22.5879397 0.3698515 0.3954481
22.7638191 0.3172907 0.2277824
22.9396985 0.1945277 0.084316
23.1155779 -0.0077527 -0.016326
23.2914573 -0.2156912 -0.0214144
23.4673367 -0.4107287 0.0711737
23.6432161 -0.5303779 0.1885163
23.8190955 -0.5871492 0.329484
23.9949749 -0.6132781 0.4424604
24.1708543 -0.6008265 0.5408227
24.3467337 -0.5879837 0.6197802
24.5226131 -0.5602614 0.679193
24.6984925 -0.5354547 0.7332773
24.8743719 -0.5074885 0.7714834
25.0502513 -0.4798992 0.8065589
25.2261307 -0.4545515 0.8327026
25.4020101 -0.4287053 0.8558598
25.5778894 -0.4058993 0.8735489
25.7537688 -0.3832128 0.8893474
25.9296482 -0.3623171 0.902655
26.1055276 -0.3418833 0.9146437
26.281407 -0.3228788 0.9246969
26.4572864 -0.3047326 0.9340193
26.6331658 -0.2884858 0.9401713
26.8090452 -0.2723827 0.9462917
26.9849246 -0.2570758 0.9514126
27.160804 -0.2415604 0.9581648
27.3366834 -0.2274278 0.9626279
27.5125628 -0.2130947 0.9669975
27.6884422 -0.1997544 0.9701988
27.8643216 -0.1872474 0.9727916
28.040201 -0.1751966 0.9748248
28.2160804 -0.1643346 0.9769675
28.3919598 -0.1527369 0.9786424
28.5678392 -0.1405402 0.9825195
28.7437186 -0.1305393 0.9836921
28.919598 -0.1210488 0.9851059
29.0954774 -0.1113906 0.9863426
29.2713568 -0.1020818 0.9876209
29.4472362 -0.0914125 0.990282
29.6231156 -0.0826215 0.9909167
29.798995 -0.075342 0.9907142
29.9748744 -0.0659458 0.9918834
30.1507538 -0.0563082 0.9949786
30.3266332 -0.0462438 0.997849
30.5025126 -0.0378762 0.9978852
30.678392 -0.0293735 0.9979481
30.8542714 -0.0203735 0.9986853
31.0301508 -0.0119566 0.9987689
31.2060302 -0.0036471 0.9980384
31.3819095 0.0047237 0.9975569
31.5577889 0.0123756 0.9967621
31.7336683 0.0204173 0.9964113
31.9095477 0.0282521 0.9952171
32.0854271 0.035687 0.9945419
32.2613065 0.0440426 0.9942414
32.4371859 0.0524741 0.9951727
32.6130653 0.0599407 0.9959114
32.7889447 0.0726881 1.0008293
32.9648241 0.0817374 1.0031231
33.1407035 0.0854809 1.0007515
33.3165829 0.1013462 1.0081157
33.4924623 0.1096093 1.0082415
33.66834169999999 0.1202351 1.0108601
33.8442211 0.1254211 1.0086573
34.0201005 0.133496 1.0085702
34.1959799 0.1337622 1.0045761
34.3718593 0.1378483 1.0015449
34.5477387 0.1435734 0.9999447
34.7236181 0.1492487 0.9987685
34.8994975 0.1550092 0.9970289
35.0753769 0.1609506 0.9957639
35.2512563 0.168437 0.9956673
35.4271357 0.1744899 0.9941653
35.6030151 0.1797293 0.9924303
35.7788945 0.1852036 0.9908707
35.9547739 0.1944052 0.9910371
36.1306533 0.1986108 0.9889316
36.3065327 0.2038433 0.9868893
36.48241209999999 0.2186666 0.9898995
36.6582915 0.2198041 0.9861415
36.8341709 0.222403 0.9833392
37.0100503 0.2268429 0.9815691
37.1859296 0.2327422 0.9798227
37.361809 0.2415259 0.9796355
37.5376884 0.2473948 0.9782992
37.7135678 0.2524745 0.9763797
37.889447200000006 0.2564681 0.9745359
38.0653266 0.2605538 0.9725287
38.241206 0.265475 0.9709315
38.4170854 0.2704435 0.9686138
38.5929648 0.2761943 0.967079
38.7688442 0.2826162 0.9662161
38.9447236 0.2883873 0.9646982
39.120603 0.2926965 0.9627181
39.296482399999995 0.2979353 0.9610192
39.4723618 0.303502 0.9596107
39.6482412 0.3088774 0.9577775
39.8241206 0.3141658 0.9559631
40.0 0.319417 0.9544654
